/ed_neo1 (Design_Point=1) X,/ed_neo1 (Design_Point=1) Y,GanhoEdNeo (Design_Point=1) X,GanhoEdNeo (Design_Point=1) Y,/I37/I0/b1 (Design_Point=1) X,/I37/I0/b1 (Design_Point=1) Y,GanhoVprod (Design_Point=1) X,GanhoVprod (Design_Point=1) Y
-0.5,1.701313554598574,-0.499,-0.3164754621201024,-0.5,1.224443702611746,-0.499,0.2498903402929906
-0.499,1.700997079136454,-0.498,-0.0277323745050406,-0.499,1.224693592952039,-0.498,0.2498904352563611
-0.498,1.700969346761949,-0.497,-0.02786642771313017,-0.498,1.224943483387295,-0.497,0.2498905234429303
-0.497,1.700941480334236,-0.496,-0.02800144513659395,-0.497,1.225193373910738,-0.496,0.249890604692826
-0.496,1.700913478889099,-0.495,-0.02813738316498335,-0.496,1.225443264515431,-0.495,0.2498906788277464
-0.495,1.700885341505934,-0.494,-0.02827424923745878,-0.495,1.225693155194258,-0.494,0.2498907456749409
-0.494,1.700857067256696,-0.493,-0.02841205345749384,-0.494,1.225943045939933,-0.493,0.2498908050545532
-0.493,1.700828655203239,-0.492,-0.02855080178476574,-0.493,1.226192936744988,-0.492,0.2498908567858391
-0.492,1.700800104401454,-0.491,-0.02869050459297637,-0.492,1.226442827601774,-0.491,0.2498909006738435
-0.491,1.700771413896861,-0.49,-0.02883116973007025,-0.491,1.226692718502448,-0.49,0.2498909365298283
-0.49,1.700742582727131,-0.489,-0.0289728055578031,-0.49,1.226942609438977,-0.489,0.2498909641568401
-0.489,1.700713609921573,-0.488,-0.0291154203131416,-0.489,1.227192500403134,-0.488,0.2498909833490435
-0.488,1.70068449450126,-0.487,-0.02925902350181528,-0.488,1.227442391386483,-0.487,0.2498909939006031
-0.487,1.700655235477758,-0.486,-0.02940362453096587,-0.487,1.227692282380384,-0.486,0.2498909955992443
-0.486,1.700625831853227,-0.485,-0.02954923009235164,-0.486,1.227942173375983,-0.485,0.2498909882271414
-0.485,1.700596282623135,-0.484,-0.02969585221634927,-0.485,1.22819206436421,-0.484,0.2498909715613615
-0.484,1.700566586770919,-0.483,-0.02984349803769601,-0.484,1.228441955335772,-0.483,0.2498909453727547
-0.483,1.700536743272881,-0.482,-0.02999217774157789,-0.483,1.228691846281144,-0.482,0.2498909094290622
-0.482,1.700506751095139,-0.481,-0.03014190007277759,-0.482,1.228941737190574,-0.481,0.2498908634880335
-0.481,1.700476609195067,-0.48,-0.03029267511345243,-0.481,1.229191628054062,-0.48,0.2498908073074178
-0.48,1.700446316519953,-0.479,-0.03044451263134459,-0.48,1.229441518861369,-0.479,0.2498907406331961
-0.479,1.700415872007322,-0.478,-0.03059742062605506,-0.479,1.229691409602002,-0.478,0.2498906632089068
-0.478,1.700385274586696,-0.477,-0.03075141164288195,-0.478,1.229941300265211,-0.477,0.2498905747720934
-0.477,1.700354523175053,-0.476,-0.03090649370718343,-0.477,1.230191190839983,-0.476,0.2498904750518613
-0.476,1.700323616681346,-0.475,-0.03106267798202997,-0.476,1.230441081315035,-0.475,0.2498903637697667
-0.475,1.700292554003364,-0.474,-0.03121997252142347,-0.475,1.230690971678805,-0.474,0.2498902406466994
-0.474,1.700261334030842,-0.473,-0.03137839105127324,-0.474,1.230940861919452,-0.473,0.2498901053891165
-0.473,1.700229955639791,-0.472,-0.0315379409292493,-0.473,1.231190752024841,-0.472,0.2498899577008105
-0.472,1.700198417698862,-0.471,-0.03169863408736259,-0.472,1.231440641982541,-0.471,0.2498897972789125
-0.471,1.700166719064774,-0.47,-0.03186048146952555,-0.471,1.23169053177982,-0.47,0.2498896238116719
-0.47,1.700134858583305,-0.469,-0.03202349240871702,-0.47,1.231940421403632,-0.469,0.2498894369762359
-0.469,1.700102835090896,-0.468,-0.03218767967694267,-0.469,1.232190310840608,-0.468,0.2498892364510839
-0.468,1.700070647411219,-0.467,-0.03235305300797184,-0.468,1.232440200077059,-0.467,0.2498890218993741
-0.467,1.700038294358211,-0.466,-0.03251962366546121,-0.467,1.232690089098959,-0.466,0.2498887929769376
-0.466,1.700005774734546,-0.465,-0.03268740361628272,-0.466,1.232939977891936,-0.465,0.2498885493371625
-0.465,1.69997308733093,-0.464,-0.03285640365024986,-0.465,1.233189866441273,-0.464,0.2498882906141195
-0.464,1.699940230927279,-0.463,-0.03302663626825184,-0.464,1.233439754731887,-0.463,0.2498880164452097
-0.463,1.699907204291011,-0.462,-0.03319811212620924,-0.463,1.233689642748332,-0.462,0.2498877264545116
-0.462,1.699874006178885,-0.461,-0.03337084298737911,-0.462,1.233939530474787,-0.461,0.2498874202487842
-0.461,1.699840635335897,-0.46,-0.03354484297890534,-0.461,1.234189417895035,-0.46,0.2498870974407816
-0.46,1.699807090492919,-0.459,-0.03372012064617455,-0.46,1.234439304992476,-0.459,0.2498867576214978
-0.459,1.699773370372272,-0.458,-0.0338966918613792,-0.459,1.234689191750098,-0.458,0.2498864003779298
-0.458,1.699739473680411,-0.457,-0.03407456698645281,-0.458,1.234939078150476,-0.457,0.2498860252853061
-0.457,1.699705399113425,-0.456,-0.03425375862753374,-0.457,1.235188964175761,-0.456,0.2498856319088636
-0.456,1.699671145354797,-0.455,-0.03443428171956417,-0.456,1.23543884980767,-0.455,0.2498852198054011
-0.455,1.699636711073077,-0.454,-0.03461614575095415,-0.455,1.235688735027475,-0.454,0.2498847885175068
-0.454,1.699602094927327,-0.453,-0.03479936646022527,-0.454,1.235938619815993,-0.453,0.2498843375777768
-0.453,1.699567295560866,-0.452,-0.03498395590062484,-0.453,1.236188504153571,-0.452,0.2498838665134782
-0.452,1.699532311604966,-0.451,-0.03516992816421368,-0.452,1.236438388020084,-0.451,0.2498833748287852
-0.451,1.699497141676801,-0.45,-0.03535729659187577,-0.451,1.236688271394913,-0.45,0.2498828620272062
-0.45,1.69946178438021,-0.449,-0.0355460738934443,-0.45,1.23693815425694,-0.449,0.2498823275969284
-0.449,1.699426238306316,-0.448,-0.03573627539332765,-0.449,1.237188036584537,-0.448,0.2498817710074872
-0.448,1.699390502030923,-0.447,-0.03592791463224995,-0.448,1.237437918355544,-0.447,0.2498811917286401
-0.447,1.699354574116291,-0.446,-0.03612100614680532,-0.447,1.237687799547273,-0.446,0.2498805892048315
-0.446,1.699318453110144,-0.445,-0.03631556418448586,-0.446,1.237937680136478,-0.445,0.249879962872068
-0.445,1.699282137545959,-0.444,-0.03651160331186173,-0.445,1.23818756009935,-0.444,0.2498793121570306
-0.444,1.699245625942647,-0.4429999999999999,-0.0367091375459427,-0.444,1.238437439411507,-0.4429999999999999,0.2498786364668601
-0.4429999999999999,1.699208916805101,-0.4419999999999999,-0.03690818401280712,-0.4429999999999999,1.238687318047974,-0.4419999999999999,0.2498779351980394
-0.4419999999999999,1.699172008621089,-0.4409999999999999,-0.03710875540186006,-0.4419999999999999,1.238937195983172,-0.4409999999999999,0.2498772077277331
-0.4409999999999999,1.699134899865687,-0.4399999999999999,-0.03731086914227074,-0.4409999999999999,1.2391870731909,-0.4399999999999999,0.2498764534277773
-0.4399999999999999,1.699097588996545,-0.4389999999999999,-0.03751454031042375,-0.4399999999999999,1.239436949644327,-0.4389999999999999,0.2498756716424742
-0.4389999999999999,1.699060074456234,-0.4379999999999999,-0.03771978401001515,-0.4389999999999999,1.23968682531597,-0.4379999999999999,0.2498748617132394
-0.4379999999999999,1.699022354672224,-0.4369999999999999,-0.03792661703294616,-0.4379999999999999,1.239936700177683,-0.4369999999999999,0.2498740229548433
-0.4369999999999999,1.698984428055191,-0.4359999999999999,-0.03813505397731728,-0.4369999999999999,1.240186574200638,-0.4359999999999999,0.2498731546745068
-0.4359999999999999,1.698946293001214,-0.4349999999999999,-0.03834511417166727,-0.4359999999999999,1.240436447355312,-0.4349999999999999,0.2498722561568021
-0.4349999999999999,1.698907947887042,-0.4339999999999999,-0.03855681168984933,-0.4349999999999999,1.240686319611469,-0.4339999999999999,0.2498713266745332
-0.4339999999999999,1.698869391075352,-0.4329999999999999,-0.03877016481657055,-0.4339999999999999,1.240936190938144,-0.4329999999999999,0.2498703654745247
-0.4329999999999999,1.698830620910536,-0.4319999999999999,-0.0389851899085247,-0.4329999999999999,1.241186061303618,-0.4319999999999999,0.24986937179694
-0.4319999999999999,1.698791635720627,-0.4309999999999999,-0.03920190469841597,-0.4319999999999999,1.241435930675415,-0.4309999999999999,0.2498683448579617
-0.4309999999999999,1.698752433815929,-0.4299999999999999,-0.03942032646531143,-0.4309999999999999,1.241685799020273,-0.4299999999999999,0.2498672838517899
-0.4299999999999999,1.698713013489463,-0.4289999999999999,-0.03964047331050932,-0.4299999999999999,1.241935666304125,-0.4289999999999999,0.2498661879632988
-0.4289999999999999,1.698673373016153,-0.4279999999999999,-0.0398623632951178,-0.4289999999999999,1.242185532492088,-0.4279999999999999,0.2498650563469427
-0.4279999999999999,1.698633510652858,-0.4269999999999999,-0.04008601381344509,-0.4279999999999999,1.242435397548435,-0.4269999999999999,0.2498638881465174
-0.4269999999999999,1.698593424639044,-0.4259999999999999,-0.0403114443754404,-0.4269999999999999,1.242685261436582,-0.4259999999999999,0.2498626824767312
-0.4259999999999999,1.698553113194669,-0.4249999999999999,-0.04053867389375295,-0.4259999999999999,1.242935124119058,-0.4249999999999999,0.2498614384405238
-0.4249999999999999,1.698512574520775,-0.4239999999999999,-0.04076771993255509,-0.4249999999999999,1.243184985557499,-0.4239999999999999,0.2498601551124133
-0.4239999999999999,1.698471806800843,-0.4229999999999999,-0.04099860372042127,-0.4239999999999999,1.243434845712611,-0.4229999999999999,0.2498588315491543
-0.4229999999999999,1.698430808197122,-0.4219999999999999,-0.04123134288080973,-0.4229999999999999,1.243684704544161,-0.4219999999999999,0.2498574667837425
-0.4219999999999999,1.698389576854241,-0.4209999999999999,-0.0414659591250199,-0.4219999999999999,1.243934562010944,-0.4209999999999999,0.2498560598251929
-0.4209999999999999,1.698348110895116,-0.4199999999999999,-0.04170247124601897,-0.4209999999999999,1.24418441807077,-0.4199999999999999,0.2498546096603158
-0.4199999999999999,1.69830640842387,-0.4189999999999999,-0.04194089976028433,-0.4199999999999999,1.24443427268043,-0.4189999999999999,0.2498531152534953
-0.4189999999999999,1.69826446752411,-0.4179999999999999,-0.04218126533572782,-0.4189999999999999,1.244684125795683,-0.4179999999999999,0.2498515755411377
-0.4179999999999999,1.698222286258774,-0.4169999999999999,-0.04242359000961034,-0.4179999999999999,1.244933977371224,-0.4169999999999999,0.2498499894396653
-0.4169999999999999,1.698179862668765,-0.4159999999999999,-0.04266789347795449,-0.4169999999999999,1.245183827360664,-0.4159999999999999,0.2498483558337481
-0.4159999999999999,1.698137194775287,-0.4149999999999999,-0.04291419802870951,-0.4159999999999999,1.245433675716498,-0.4149999999999999,0.2498466735842972
-0.4149999999999999,1.698094280577258,-0.4139999999999999,-0.04316252549818596,-0.4149999999999999,1.245683522390082,-0.4139999999999999,0.2498449415302415
-0.4139999999999999,1.69805111805176,-0.4129999999999999,-0.04341289793297061,-0.4139999999999999,1.245933367331612,-0.4129999999999999,0.2498431584749825
-0.4129999999999999,1.698007705153827,-0.4119999999999999,-0.04366533763677789,-0.4129999999999999,1.246183210490087,-0.4119999999999999,0.2498413232012717
-0.4119999999999999,1.69796403981619,-0.4109999999999999,-0.04391986787322107,-0.4119999999999999,1.246433051813289,-0.4109999999999999,0.2498394344543351
-0.4109999999999999,1.697920119948317,-0.4099999999999999,-0.04417651193566736,-0.4109999999999999,1.246682891247743,-0.4099999999999999,0.2498374909607468
-0.4099999999999999,1.697875943436381,-0.4089999999999999,-0.04443529141306964,-0.4099999999999999,1.246932728738704,-0.4089999999999999,0.2498354914093335
-0.4089999999999999,1.697831508144968,-0.4079999999999999,-0.04469623269276464,-0.4089999999999999,1.247182564230113,-0.4079999999999999,0.2498334344605
-0.4079999999999999,1.697786811912275,-0.4069999999999999,-0.04495935799497804,-0.4079999999999999,1.247432397664574,-0.4069999999999999,0.2498313187446752
-0.4069999999999999,1.69774185255428,-0.4059999999999999,-0.04522469255108237,-0.4069999999999999,1.247682228983318,-0.4059999999999999,0.2498291428547625
-0.4059999999999999,1.697696627861729,-0.4049999999999999,-0.04549226145167391,-0.4059999999999999,1.247932058126173,-0.4049999999999999,0.2498269053601285
-0.4049999999999999,1.697651135600278,-0.4039999999999999,-0.04576209012308037,-0.4049999999999999,1.248181885031533,-0.4039999999999999,0.2498246047879513
-0.4039999999999999,1.697605373510155,-0.4029999999999999,-0.04603420283366684,-0.4039999999999999,1.248431709636321,-0.4029999999999999,0.2498222396321024
-0.4029999999999999,1.697559339307321,-0.4019999999999999,-0.04630862623922201,-0.4029999999999999,1.248681531875953,-0.4019999999999999,0.2498198083591416
-0.4019999999999999,1.697513030681082,-0.4009999999999999,-0.04658538760460292,-0.4019999999999999,1.248931351684312,-0.4009999999999999,0.2498173093892218
-0.4009999999999999,1.697466445293477,-0.3999999999999999,-0.04686451224111816,-0.4009999999999999,1.249181168993702,-0.3999999999999999,0.2498147411114091
-0.3999999999999999,1.697419580781236,-0.3989999999999999,-0.0471460280144775,-0.3999999999999999,1.249430983734813,-0.3989999999999999,0.2498121018765784
-0.3989999999999999,1.697372434753222,-0.3979999999999999,-0.04742996259743389,-0.3989999999999999,1.24968079583669,-0.3979999999999999,0.2498093899949703
-0.3979999999999999,1.697325004790624,-0.3969999999999999,-0.04771634330569259,-0.3979999999999999,1.249930605226685,-0.3969999999999999,0.2498066037404099
-0.3969999999999999,1.697277288447318,-0.3959999999999999,-0.04800519913339403,-0.3969999999999999,1.250180411830425,-0.3959999999999999,0.2498037413458662
-0.3959999999999999,1.697229283248185,-0.3949999999999999,-0.04829655868743284,-0.3959999999999999,1.250430215571771,-0.3949999999999999,0.2498008009985673
-0.3949999999999999,1.697180986689498,-0.3939999999999999,-0.04859045172111993,-0.3949999999999999,1.250680016372769,-0.3939999999999999,0.2497977808511018
-0.3939999999999999,1.697132396237776,-0.3929999999999999,-0.04888690645521439,-0.3939999999999999,1.25092981415362,-0.3929999999999999,0.2497946790067649
-0.3929999999999999,1.697083509331321,-0.3919999999999999,-0.04918595517877651,-0.3929999999999999,1.251179608832627,-0.3919999999999999,0.2497914935291055
-0.3919999999999999,1.697034323376142,-0.3909999999999999,-0.04948762615808451,-0.3919999999999999,1.251429400326156,-0.3909999999999999,0.2497882224314905
-0.3909999999999999,1.696984835749984,-0.3899999999999999,-0.04979195308862923,-0.3909999999999999,1.251679188548588,-0.3899999999999999,0.2497848636873188
-0.3899999999999999,1.696935043796896,-0.3889999999999999,-0.05009896502095042,-0.3899999999999999,1.251928973412275,-0.3889999999999999,0.2497814152213615
-0.3889999999999999,1.696884944831875,-0.3879999999999999,-0.05040869646522057,-0.3889999999999999,1.252178754827497,-0.3879999999999999,0.2497778749033228
-0.3879999999999999,1.69683453613541,-0.3869999999999999,-0.05072117792903615,-0.3879999999999999,1.2524285327024,-0.3869999999999999,0.2497742405622725
-0.3869999999999999,1.696783814957481,-0.3859999999999999,-0.05103644385107126,-0.3869999999999999,1.252678306942962,-0.3859999999999999,0.2497705099757661
-0.3859999999999999,1.696732778513629,-0.3849999999999999,-0.05135452723314943,-0.3859999999999999,1.252928077452938,-0.3849999999999999,0.2497666808645158
-0.3849999999999999,1.696681423986396,-0.3839999999999999,-0.05167546208406643,-0.3849999999999999,1.253177844133802,-0.3839999999999999,0.2497627509023823
-0.3839999999999999,1.696629748524312,-0.3829999999999999,-0.0519992845544603,-0.3839999999999999,1.253427606884705,-0.3829999999999999,0.2497587177030522
-0.3829999999999999,1.696577749239758,-0.3819999999999999,-0.05232602806026771,-0.3829999999999999,1.253677365602408,-0.3819999999999999,0.2497545788349151
-0.3819999999999999,1.696525423211698,-0.3809999999999999,-0.05265572931723023,-0.3819999999999999,1.253927120181243,-0.3809999999999999,0.2497503317984149
-0.3809999999999999,1.69647276748238,-0.3799999999999999,-0.05298842460477177,-0.3809999999999999,1.254176870513041,-0.3799999999999999,0.2497459740451455
-0.3799999999999999,1.696419779057776,-0.3789999999999999,-0.0533241518956284,-0.3799999999999999,1.254426616487086,-0.3789999999999999,0.2497415029649728
-0.3789999999999999,1.69636645490588,-0.3779999999999999,-0.05366294690301027,-0.3789999999999999,1.254676357990051,-0.3779999999999999,0.2497369158875882
-0.3779999999999999,1.696312791958977,-0.3769999999999999,-0.05400484979367621,-0.3779999999999999,1.254926094905939,-0.3769999999999999,0.2497322100800667
-0.3769999999999999,1.696258787109183,-0.3759999999999999,-0.05434989770480842,-0.3769999999999999,1.255175827116019,-0.3759999999999999,0.2497273827481992
-0.3759999999999999,1.696204437211478,-0.3749999999999999,-0.05469813209324487,-0.3759999999999999,1.255425554498767,-0.3749999999999999,0.2497224310347155
-0.3749999999999999,1.696149739079385,-0.3739999999999999,-0.0550495917728266,-0.3749999999999999,1.255675276929802,-0.3739999999999999,0.2497173520126237
-0.3739999999999999,1.696094689487612,-0.3729999999999999,-0.0554043178730978,-0.3739999999999999,1.255924994281814,-0.3729999999999999,0.2497121426936475
-0.3729999999999999,1.696039285169739,-0.3719999999999999,-0.05576235145277048,-0.3729999999999999,1.256174706424508,-0.3719999999999999,0.2497068000129052
-0.3719999999999999,1.695983522818286,-0.3709999999999999,-0.05612373639918284,-0.3719999999999999,1.256424413224521,-0.3709999999999999,0.2497013208442309
-0.3709999999999999,1.695927399081887,-0.3699999999999999,-0.05648851501960368,-0.3709999999999999,1.256674114545365,-0.3699999999999999,0.2496957019821886
-0.3699999999999999,1.695870910566868,-0.3689999999999999,-0.05685672906219347,-0.3699999999999999,1.256923810247347,-0.3689999999999999,0.2496899401569495
-0.3689999999999999,1.695814053837805,-0.3679999999999999,-0.05722842559596759,-0.3689999999999999,1.257173500187504,-0.3679999999999999,0.249684032011199
-0.3679999999999999,1.69575682541221,-0.3669999999999999,-0.05760364910378785,-0.3679999999999999,1.257423184219516,-0.3669999999999999,0.2496779741250064
-0.3669999999999999,1.695699221763106,-0.3659999999999999,-0.05798244453347751,-0.3669999999999999,1.257672862193641,-0.3659999999999999,0.249671762986958
-0.3659999999999999,1.695641239318572,-0.3649999999999999,-0.05836486019705762,-0.3659999999999999,1.257922533956628,-0.3649999999999999,0.2496653950179171
-0.3649999999999999,1.695582874458375,-0.3639999999999999,-0.05875094236507111,-0.3649999999999999,1.258172199351645,-0.3639999999999999,0.2496588665483743
-0.3639999999999999,1.69552412351601,-0.3629999999999999,-0.05914074090695992,-0.3639999999999999,1.258421858218194,-0.3629999999999999,0.249652173830661
-0.3629999999999999,1.695464982775103,-0.3619999999999999,-0.05953430400595922,-0.3629999999999999,1.258671510392025,-0.3619999999999999,0.2496453130278462
-0.3619999999999999,1.695405448471097,-0.3609999999999999,-0.05993168221407602,-0.3619999999999999,1.258921155705052,-0.3609999999999999,0.249638280217068
-0.3609999999999999,1.695345516788883,-0.3599999999999999,-0.06033292690643671,-0.3609999999999999,1.259170793985269,-0.3599999999999999,0.2496310713877568
-0.3599999999999999,1.695285183861977,-0.3589999999999999,-0.06073808955098231,-0.3599999999999999,1.259420425056657,-0.3589999999999999,0.249623682441191
-0.3589999999999999,1.695224445772426,-0.3579999999999999,-0.06114722344086049,-0.3589999999999999,1.259670048739098,-0.3579999999999999,0.2496161091753988
-0.3579999999999999,1.695163298548985,-0.3569999999999999,-0.06156038263638303,-0.3579999999999999,1.259919664848274,-0.3569999999999999,0.2496083473060293
-0.3569999999999999,1.695101738166348,-0.3559999999999999,-0.06197762175252913,-0.3569999999999999,1.26016927319558,-0.3559999999999999,0.2496003924421506
-0.3559999999999999,1.695039760544596,-0.3549999999999999,-0.06239899784477027,-0.3559999999999999,1.260418873588022,-0.3549999999999999,0.24959224010046
-0.3549999999999999,1.694977361546751,-0.3539999999999999,-0.0628245646174807,-0.3549999999999999,1.260668465828122,-0.3539999999999999,0.2495838856919617
