/ed_neo1 (Design_Point=1) X,/ed_neo1 (Design_Point=1) Y,/Vprod (Design_Point=1) X,/Vprod (Design_Point=1) Y
-1.8,1.736910900096069,-1.8,0.9129716073063229
-1.79964,1.736885384832354,-1.79964,0.9130613024089757
-1.79928,1.736884964972277,-1.79928,0.9131509976315431
-1.79892,1.736884544910137,-1.79892,0.9132406929739961
-1.79856,1.736884124645863,-1.79856,0.9133303884363094
-1.7982,1.73688370417926,-1.7982,0.9134200840184572
-1.797840000000001,1.736883283510197,-1.797840000000001,0.9135097797204114
-1.797480000000001,1.736882862638574,-1.797480000000001,0.9135994755421445
-1.797120000000001,1.736882441564266,-1.797120000000001,0.9136891714836303
-1.796760000000001,1.736882020286971,-1.796760000000001,0.9137788675448427
-1.796400000000001,1.736881598806817,-1.796400000000001,0.9138685637257541
-1.796040000000001,1.73688117712348,-1.796040000000001,0.9139582600263388
-1.795680000000001,1.736880755236904,-1.795680000000001,0.9140479564465706
-1.795320000000001,1.736880333146885,-1.795320000000001,0.9141376529864207
-1.794960000000001,1.736879910853368,-1.794960000000001,0.9142273496458629
-1.794600000000001,1.736879488356123,-1.794600000000001,0.9143170464248727
-1.794240000000001,1.736879065654988,-1.794240000000001,0.9144067433234185
-1.793880000000001,1.736878642750077,-1.793880000000001,0.9144964403414786
-1.793520000000002,1.736878219640945,-1.793520000000002,0.9145861374790241
-1.793160000000002,1.736877796327505,-1.793160000000002,0.9146758347360283
-1.792800000000002,1.736877372809851,-1.792800000000002,0.9147655321124655
-1.792440000000002,1.736876949087612,-1.792440000000002,0.9148552296083077
-1.792080000000002,1.736876525160609,-1.792080000000002,0.9149449272235299
-1.791720000000002,1.736876101028929,-1.791720000000002,0.9150346249581036
-1.791360000000002,1.736875676692279,-1.791360000000002,0.9151243228120046
-1.791000000000002,1.736875252150543,-1.791000000000002,0.9152140207852029
-1.790640000000002,1.736874827403574,-1.790640000000002,0.9153037188776741
-1.790280000000002,1.736874402451292,-1.790280000000002,0.9153934170893911
-1.789920000000002,1.736873977293516,-1.789920000000002,0.9154831154203285
-1.789560000000002,1.73687355192999,-1.789560000000002,0.9155728138704589
-1.789200000000003,1.736873126360776,-1.789200000000003,0.9156625124397532
-1.788840000000003,1.736872700585671,-1.788840000000003,0.9157522111281888
-1.788480000000003,1.736872274604457,-1.788480000000003,0.9158419099357368
-1.788120000000003,1.736871848417088,-1.788120000000003,0.9159316088623706
-1.787760000000003,1.736871422023422,-1.787760000000003,0.9160213079080649
-1.787400000000003,1.736870995423132,-1.787400000000003,0.9161110070727931
-1.787040000000003,1.736870568616202,-1.787040000000003,0.9162007063565278
-1.786680000000003,1.736870141602705,-1.786680000000003,0.9162904057592421
-1.786320000000003,1.736869714382203,-1.786320000000003,0.916380105280911
-1.785960000000003,1.736869286954576,-1.785960000000003,0.9164698049215064
-1.785600000000003,1.736868859319848,-1.785600000000003,0.9165595046810031
-1.785240000000003,1.736868431477849,-1.785240000000003,0.9166492045593733
-1.784880000000004,1.736868003428232,-1.784880000000004,0.9167389045565921
-1.784520000000004,1.736867575171097,-1.784520000000004,0.9168286046726322
-1.784160000000004,1.73686714670618,-1.784160000000004,0.9169183049074662
-1.783800000000004,1.736866718033368,-1.783800000000004,0.9170080052610692
-1.783440000000004,1.736866289152541,-1.783440000000004,0.9170977057334133
-1.783080000000004,1.736865860063489,-1.783080000000004,0.9171874063244742
-1.782720000000004,1.736865430766165,-1.782720000000004,0.9172771070342233
-1.782360000000004,1.736865001260248,-1.782360000000004,0.917366807862636
-1.782000000000004,1.736864571545905,-1.782000000000004,0.9174565088096831
-1.781640000000004,1.73686414162265,-1.781640000000004,0.9175462098753402
-1.781280000000004,1.736863711490552,-1.781280000000004,0.9176359110595812
-1.780920000000004,1.736863281149434,-1.780920000000004,0.9177256123623796
-1.780560000000005,1.736862850599127,-1.780560000000005,0.9178153137837078
-1.780200000000005,1.736862419839412,-1.780200000000005,0.9179050153235402
-1.779840000000005,1.736861988870416,-1.779840000000005,0.9179947169818511
-1.779480000000005,1.736861557691661,-1.779480000000005,0.918084418758613
-1.779120000000005,1.736861126303224,-1.779120000000005,0.9181741206537998
-1.778760000000005,1.736860694704841,-1.778760000000005,0.9182638226673865
-1.778400000000005,1.73686026289643,-1.778400000000005,0.9183535247993434
-1.778040000000005,1.736859830877725,-1.778040000000005,0.9184432270496476
-1.777680000000005,1.736859398648787,-1.777680000000005,0.9185329294182717
-1.777320000000005,1.736858966209364,-1.777320000000005,0.9186226319051896
-1.776960000000005,1.736858533559329,-1.776960000000005,0.9187123345103745
-1.776600000000006,1.736858100698528,-1.776600000000006,0.9188020372337995
-1.776240000000006,1.736857667626762,-1.776240000000006,0.9188917400754385
-1.775880000000006,1.736857234343997,-1.775880000000006,0.918981443035267
-1.775520000000006,1.736856800849952,-1.775520000000006,0.9190711461132558
-1.775160000000006,1.736856367144716,-1.775160000000006,0.9191608493093816
-1.774800000000006,1.736855933227779,-1.774800000000006,0.9192505526236164
-1.774440000000006,1.736855499099415,-1.774440000000006,0.9193402560559345
-1.774080000000006,1.736855064759163,-1.774080000000006,0.9194299596063088
-1.773720000000006,1.736854630206923,-1.773720000000006,0.9195196632747147
-1.773360000000006,1.736854195442644,-1.773360000000006,0.9196093670611243
-1.773000000000006,1.736853760466202,-1.773000000000006,0.9196990709655121
-1.772640000000006,1.736853325277345,-1.772640000000006,0.9197887749878526
-1.772280000000007,1.736852889875993,-1.772280000000007,0.9198784791281187
-1.771920000000007,1.736852454261983,-1.771920000000007,0.9199681833862837
-1.771560000000007,1.736852018435163,-1.771560000000007,0.9200578877623231
-1.771200000000007,1.736851582395408,-1.771200000000007,0.9201475922562089
-1.770840000000007,1.736851146142435,-1.770840000000007,0.9202372968679159
-1.770480000000007,1.73685070967633,-1.770480000000007,0.9203270015974171
-1.770120000000007,1.736850272996798,-1.770120000000007,0.9204167064446871
-1.769760000000007,1.736849836103759,-1.769760000000007,0.9205064114097004
-1.769400000000007,1.736849398997018,-1.769400000000007,0.9205961164924296
-1.769040000000007,1.73684896167645,-1.769040000000007,0.9206858216928481
-1.768680000000007,1.736848524141903,-1.768680000000007,0.9207755270109319
-1.768320000000007,1.73684808639314,-1.768320000000007,0.9208652324466527
-1.767960000000008,1.736847648430168,-1.767960000000008,0.9209549379999864
-1.767600000000008,1.736847210252776,-1.767600000000008,0.9210446436709044
-1.767240000000008,1.73684677186083,-1.767240000000008,0.9211343494593829
-1.766880000000008,1.736846333254136,-1.766880000000008,0.9212240553653939
-1.766520000000008,1.736845894432581,-1.766520000000008,0.9213137613889141
-1.766160000000008,1.736845455396026,-1.766160000000008,0.9214034675299143
-1.765800000000008,1.736845016144294,-1.765800000000008,0.9214931737883691
-1.765440000000008,1.736844576677157,-1.765440000000008,0.9215828801642543
-1.765080000000008,1.73684413699474,-1.765080000000008,0.9216725866575416
-1.764720000000008,1.736843697096596,-1.764720000000008,0.9217622932682077
-1.764360000000008,1.736843256982607,-1.764360000000008,0.921851999996223
-1.764000000000008,1.736842816652906,-1.764000000000008,0.921941706841564
-1.763640000000009,1.736842376106952,-1.763640000000009,0.9220314138042035
-1.763280000000009,1.736841935344891,-1.763280000000009,0.9221211208841154
-1.762920000000009,1.73684149436645,-1.762920000000009,0.9222108280812746
-1.762560000000009,1.736841053171512,-1.762560000000009,0.922300535395655
-1.762200000000009,1.73684061175991,-1.762200000000009,0.9223902428272296
-1.761840000000009,1.736840170131506,-1.761840000000009,0.9224799503759722
-1.761480000000009,1.73683972828607,-1.761480000000009,0.9225696580418591
-1.761120000000009,1.736839286223656,-1.761120000000009,0.922659365824862
-1.760760000000009,1.736838843943946,-1.760760000000009,0.9227490737249563
-1.760400000000009,1.73683840144673,-1.760400000000009,0.9228387817421153
-1.760040000000009,1.736837958732092,-1.760040000000009,0.9229284898763126
-1.759680000000009,1.736837515799633,-1.759680000000009,0.9230181981275238
-1.75932000000001,1.73683707264935,-1.75932000000001,0.9231079064957211
-1.75896000000001,1.736836629281059,-1.75896000000001,0.9231976149808805
-1.75860000000001,1.736836185694598,-1.75860000000001,0.9232873235829734
-1.75824000000001,1.736835741889762,-1.75824000000001,0.923377032301976
-1.75788000000001,1.736835297866591,-1.75788000000001,0.9234667411378631
-1.75752000000001,1.736834853624765,-1.75752000000001,0.9235564500906063
-1.75716000000001,1.736834409164138,-1.75716000000001,0.923646159160181
-1.75680000000001,1.736833964484534,-1.75680000000001,0.9237358683465625
-1.75644000000001,1.736833519585922,-1.75644000000001,0.9238255776497217
-1.75608000000001,1.736833074468083,-1.75608000000001,0.923915287069636
-1.75572000000001,1.736832629130852,-1.75572000000001,0.9240049966062769
-1.75536000000001,1.73683218357413,-1.75536000000001,0.9240947062596202
-1.755000000000011,1.736831737797698,-1.755000000000011,0.9241844160296401
-1.754640000000011,1.736831291801418,-1.754640000000011,0.9242741259163093
-1.754280000000011,1.736830845585094,-1.754280000000011,0.9243638359196037
-1.753920000000011,1.736830399148722,-1.753920000000011,0.9244535460394956
-1.753560000000011,1.736829952492026,-1.753560000000011,0.9245432562759593
-1.753200000000011,1.736829505614987,-1.753200000000011,0.9246329666289721
-1.752840000000011,1.736829058517273,-1.752840000000011,0.9247226770985052
-1.752480000000011,1.736828611198732,-1.752480000000011,0.924812387684533
-1.752120000000011,1.736828163659337,-1.752120000000011,0.9249020983870302
-1.751760000000011,1.736827715898879,-1.751760000000011,0.924991809205971
-1.751400000000011,1.73682726791724,-1.751400000000011,0.9250815201413298
-1.751040000000011,1.736826819714222,-1.751040000000011,0.9251712311930792
-1.750680000000012,1.736826371289692,-1.750680000000012,0.9252609423611958
-1.750320000000012,1.736825922643473,-1.750320000000012,0.9253506536456525
-1.749960000000012,1.736825473775334,-1.749960000000012,0.9254403650464234
-1.749600000000012,1.736825024685261,-1.749600000000012,0.9255300765634834
-1.749240000000012,1.736824575373108,-1.749240000000012,0.9256197881968062
-1.748880000000012,1.736824125838645,-1.748880000000012,0.925709499946366
-1.748520000000012,1.736823676081732,-1.748520000000012,0.9257992118121384
-1.748160000000012,1.736823226102203,-1.748160000000012,0.9258889237940943
-1.747800000000012,1.736822775899948,-1.747800000000012,0.9259786358922122
-1.747440000000012,1.73682232547469,-1.747440000000012,0.9260683481064637
-1.747080000000012,1.73682187482642,-1.747080000000012,0.9261580604368232
-1.746720000000012,1.736821423954994,-1.746720000000012,0.9262477728832654
-1.746360000000013,1.73682097286006,-1.746360000000013,0.9263374854457658
-1.746000000000013,1.73682052154165,-1.746000000000013,0.9264271981242971
-1.745640000000013,1.736820069999549,-1.745640000000013,0.9265169109188331
-1.745280000000013,1.736819618233641,-1.745280000000013,0.9266066238293493
-1.744920000000013,1.736819166243701,-1.744920000000013,0.9266963368558205
-1.744560000000013,1.736818714029573,-1.744560000000013,0.9267860499982198
-1.744200000000013,1.73681826159115,-1.744200000000013,0.9268757632565207
-1.743840000000013,1.736817808928258,-1.743840000000013,0.9269654766307004
-1.743480000000013,1.73681735604071,-1.743480000000013,0.9270551901207312
-1.743120000000013,1.736816902928396,-1.743120000000013,0.9271449037265884
-1.742760000000013,1.736816449591064,-1.742760000000013,0.9272346174482443
-1.742400000000013,1.736815996028697,-1.742400000000013,0.9273243312856766
-1.742040000000014,1.736815542241078,-1.742040000000014,0.9274140452388557
-1.741680000000014,1.736815088228048,-1.741680000000014,0.9275037593077601
-1.741320000000014,1.736814633989496,-1.741320000000014,0.927593473492361
-1.740960000000014,1.736814179525099,-1.740960000000014,0.9276831877926337
-1.740600000000014,1.736813724834771,-1.740600000000014,0.9277729022085527
-1.740240000000014,1.736813269918542,-1.740240000000014,0.9278626167400928
-1.739880000000014,1.736812814776074,-1.739880000000014,0.9279523313872283
-1.739520000000014,1.736812359407213,-1.739520000000014,0.9280420461499332
-1.739160000000014,1.736811903811859,-1.739160000000014,0.928131761028182
-1.738800000000014,1.736811447989728,-1.738800000000014,0.9282214760219494
-1.738440000000014,1.736810991940833,-1.738440000000014,0.9283111911312084
-1.738080000000015,1.736810535664923,-1.738080000000015,0.9284009063559355
-1.737720000000015,1.73681007916186,-1.737720000000015,0.9284906216961044
-1.737360000000015,1.736809622431505,-1.737360000000015,0.9285803371516888
-1.737000000000015,1.736809165473667,-1.737000000000015,0.9286700527226631
-1.736640000000015,1.736808708288113,-1.736640000000015,0.9287597684090032
-1.736280000000015,1.736808250874837,-1.736280000000015,0.9288494842106815
-1.735920000000015,1.736807793233605,-1.735920000000015,0.9289392001276751
-1.735560000000015,1.736807335364255,-1.735560000000015,0.9290289161599561
-1.735200000000015,1.736806877266637,-1.735200000000015,0.9291186323074996
-1.734840000000015,1.736806418940592,-1.734840000000015,0.9292083485702818
-1.734480000000015,1.736805960385949,-1.734480000000015,0.9292980649482736
-1.734120000000015,1.736805501602529,-1.734120000000015,0.9293877814414537
-1.733760000000016,1.736805042590135,-1.733760000000016,0.9294774980497923
-1.733400000000016,1.736804583348794,-1.733400000000016,0.9295672147732664
-1.733040000000016,1.736804123878103,-1.733040000000016,0.9296569316118513
-1.732680000000016,1.73680366417806,-1.732680000000016,0.9297466485655183
-1.732320000000016,1.736803204248463,-1.732320000000016,0.9298363656342465
-1.731960000000016,1.736802744089155,-1.731960000000016,0.9299260828180061
-1.731600000000016,1.736802283699971,-1.731600000000016,0.9300158001167736
-1.731240000000016,1.736801823080715,-1.731240000000016,0.9301055175305245
-1.730880000000016,1.736801362231261,-1.730880000000016,0.9301952350592313
-1.730520000000016,1.736800901151472,-1.730520000000016,0.9302849527028687
-1.730160000000016,1.736800439841116,-1.730160000000016,0.9303746704614126
-1.729800000000016,1.736799978300094,-1.729800000000016,0.9304643883348365
-1.729440000000017,1.736799516528154,-1.729440000000017,0.930554106323116
-1.729080000000017,1.736799054525302,-1.729080000000017,0.9306438244262241
-1.728720000000017,1.736798592291235,-1.728720000000017,0.9307335426441364
-1.728360000000017,1.736798129825761,-1.728360000000017,0.9308232609768271
-1.728000000000017,1.736797667128902,-1.728000000000017,0.9309129794242721
-1.727640000000017,1.736797204200126,-1.727640000000017,0.9310026979864435
-1.727280000000017,1.736796741039784,-1.727280000000017,0.9310924166633184
-1.726920000000017,1.736796277647293,-1.726920000000017,0.9311821354548691
-1.726560000000017,1.736795814022814,-1.726560000000017,0.9312718543610723
-1.726200000000017,1.736795350165902,-1.726200000000017,0.9313615733819007
-1.725840000000017,1.736794886076536,-1.725840000000017,0.9314512925173312
-1.725480000000017,1.736794421754439,-1.725480000000017,0.9315410117673356
-1.725120000000018,1.736793957199592,-1.725120000000018,0.9316307311318907
-1.724760000000018,1.736793492411784,-1.724760000000018,0.9317204506109703
-1.724400000000018,1.736793027390831,-1.724400000000018,0.9318101702045491
-1.724040000000018,1.73679256213658,-1.724040000000018,0.9318998899126011
-1.723680000000018,1.736792096648865,-1.723680000000018,0.9319896097351021
-1.723320000000018,1.736791630927405,-1.723320000000018,0.932079329672026
-1.722960000000018,1.736791164972266,-1.722960000000018,0.9321690497233481
-1.722600000000018,1.736790698783141,-1.722600000000018,0.9322587698890412
-1.722240000000018,1.73679023235997,-1.722240000000018,0.9323484901690837
-1.721880000000018,1.736789765702333,-1.721880000000018,0.9324382105634473
-1.721520000000018,1.73678929881031,-1.721520000000018,0.9325279310721053
-1.721160000000018,1.736788831683695,-1.721160000000018,0.9326176516950364
-1.720800000000019,1.736788364322201,-1.720800000000019,0.9327073724322127
-1.720440000000019,1.736787896725889,-1.720440000000019,0.9327970932836099
-1.720080000000019,1.736787428894386,-1.720080000000019,0.9328868142492011
-1.719720000000019,1.736786960827606,-1.719720000000019,0.9329765353289631
-1.719360000000019,1.736786492525281,-1.719360000000019,0.933066256522869
-1.719000000000019,1.736786023987416,-1.719000000000019,0.9331559778308952
-1.718640000000019,1.73678555521374,-1.718640000000019,0.9332456992530136
-1.718280000000019,1.736785086204145,-1.718280000000019,0.9333354207892022
-1.717920000000019,1.736784616958415,-1.717920000000019,0.9334251424394335
-1.717560000000019,1.736784147476372,-1.717560000000019,0.933514864203682
-1.717200000000019,1.736783677757909,-1.717200000000019,0.9336045860819245
-1.716840000000019,1.736783207802713,-1.716840000000019,0.9336943080741343
-1.71648000000002,1.736782737610901,-1.71648000000002,0.9337840301802864
-1.71612000000002,1.736782267181962,-1.71612000000002,0.9338737524003554
-1.71576000000002,1.736781796516045,-1.71576000000002,0.9339634747343165
-1.71540000000002,1.73678132561276,-1.71540000000002,0.9340531971821431
-1.71504000000002,1.736780854472028,-1.71504000000002,0.9341429197438121
-1.71468000000002,1.736780383093568,-1.71468000000002,0.9342326424192973
-1.71432000000002,1.736779911477317,-1.71432000000002,0.9343223652085729
-1.71396000000002,1.736779439623245,-1.71396000000002,0.9344120881116137
-1.71360000000002,1.736778967530889,-1.71360000000002,0.9345018111283944
-1.71324000000002,1.736778495200393,-1.71324000000002,0.9345915342588913
-1.71288000000002,1.73677802263134,-1.71288000000002,0.9346812575030774
-1.71252000000002,1.736777549823559,-1.71252000000002,0.934770980860929
-1.712160000000021,1.736777076777025,-1.712160000000021,0.9348607043324201
-1.711800000000021,1.736776603491506,-1.711800000000021,0.9349504279175247
-1.711440000000021,1.736776129966866,-1.711440000000021,0.9350401516162183
-1.711080000000021,1.7367756562029,-1.711080000000021,0.935129875428476
-1.710720000000021,1.736775182199428,-1.710720000000021,0.9352195993542726
-1.710360000000021,1.7367747079562,-1.710360000000021,0.9353093233935826
-1.710000000000021,1.73677423347325,-1.710000000000021,0.9353990475463809
-1.709640000000021,1.736773758750282,-1.709640000000021,0.935488771812643
-1.709280000000021,1.736773283787229,-1.709280000000021,0.9355784961923417
-1.708920000000021,1.736772808583656,-1.708920000000021,0.9356682206854552
-1.708560000000021,1.736772333139738,-1.708560000000021,0.9357579452919557
-1.708200000000021,1.736771857454944,-1.708200000000021,0.9358476700118183
-1.707840000000022,1.736771381529377,-1.707840000000022,0.9359373948450187
-1.707480000000022,1.736770905362803,-1.707480000000022,0.9360271197915317
-1.707120000000022,1.736770428955045,-1.707120000000022,0.9361168448513308
-1.706760000000022,1.736769952305898,-1.706760000000022,0.9362065700243917
-1.706400000000022,1.736769475415198,-1.706400000000022,0.9362962953106906
-1.706040000000022,1.736768998282703,-1.706040000000022,0.9363860207102008
-1.705680000000022,1.736768520908452,-1.705680000000022,0.936475746222897
-1.705320000000022,1.73676804329207,-1.705320000000022,0.9365654718487555
-1.704960000000022,1.736767565433499,-1.704960000000022,0.9366551975877504
-1.704600000000022,1.736767087332495,-1.704600000000022,0.9367449234398556
-1.704240000000022,1.736766608988905,-1.704240000000022,0.9368346494050479
-1.703880000000022,1.736766130402503,-1.703880000000022,0.9369243754833
